T90D6F440 000:001.715   SEGGER J-Link V9.64 Log File
T90D6F440 000:001.762   DLL Compiled: Jul 29 2026 14:00:46
T90D6F440 000:001.763   Logging started @ 2026-09-01 01:42
T90D6F440 000:001.763   Process: /home/chang/.eclipse/com.renesas.platform_653579126/DebugComp/RA/e2-server-gdb
T90D6F440 000:001.765 - 1.764ms 
T90D6F440 000:001.767 JLINK_GetDLLVersion()
T90D6F440 000:001.768 - 0.000ms returns 96400
T90D6F440 000:002.691 JLINK_OpenEx(...)
T90D6F440 000:007.871   Firmware: J-Link OB-RA4M2 compiled May  6 2026 16:18:23
T90D6F440 000:009.869   Firmware: J-Link OB-RA4M2 compiled May  6 2026 16:18:23
T90D6F440 000:081.854   Hardware: V1.00
T90D6F440 000:081.860   S/N: 1084469162
T90D6F440 000:081.861   OEM: SEGGER
T90D6F440 000:081.862   Feature(s): None
T90D6F440 000:083.277   Bootloader: 2021 May 14
T90D6F440 000:084.340   USB speed mode: Full speed (12 MBit/s)
T90D6F440 000:084.997   TELNET listener socket opened on port 19021
T90D6F440 000:085.054   WEBSRV WEBSRV_Init(): Starting webserver thread(s)
T90D6F440 000:085.095   WEBSRV Webserver running on local port 19080
T90D6F440 000:085.102   Looking for J-Link GUI Server exe at: ARM/Segger_v9.64.0/JLinkGUIServerExe
T90D6F440 000:085.107   Looking for J-Link GUI Server exe at: /opt/SEGGER/JLink/JLinkGUIServerExe
T90D6F440 000:085.112   Forking J-Link GUI Server: /opt/SEGGER/JLink/JLinkGUIServerExe
T90D6F440 000:094.548   J-Link GUI Server info: "J-Link GUI server V9.64 "
T90D6F440 000:094.964 - 92.272ms returns "O.K."
T90D6F440 000:094.996 JLINK_TIF_Select(JLINKARM_TIF_SWD)
T90D6F440 000:096.336 - 1.342ms returns 0x00
T90D6F440 000:096.342 JLINK_ClrRESET()
T90D6F440 000:096.846 - 0.505ms 
T90D6F440 000:146.901 JLINK_SetSpeed(1500)
T90D6F440 000:146.999 - 0.098ms 
T90D6F440 000:147.002 JLINK_CORESIGHT_Configure(PerformTIFInit=0)
T90D6F440 000:147.865 - 0.863ms returns 0
T90D6F440 000:147.869 JLINK_CORESIGHT_ReadAPDPReg(DP reg 0x00)
T90D6F440 000:148.869   Value=0x6BA02477
T90D6F440 000:148.872 - 1.003ms returns 0
T90D6F440 000:148.874 JLINK_CORESIGHT_WriteAPDPReg(DP reg 0x00, 0x0000001F)
T90D6F440 000:149.868 - 0.993ms returns 0
T90D6F440 000:149.871 JLINK_CORESIGHT_ReadAPDPReg(DP reg 0x00)
T90D6F440 000:150.859   Value=0x6BA02477
T90D6F440 000:150.862 - 0.991ms returns 0
T90D6F440 000:150.864 JLINK_CORESIGHT_WriteAPDPReg(DP reg 0x02, 0x00000000)
T90D6F440 000:151.281 - 0.416ms returns 0
T90D6F440 000:151.285 JLINK_CORESIGHT_WriteAPDPReg(DP reg 0x01, 0x50000000)
T90D6F440 000:151.860 - 0.574ms returns 0
T90D6F440 000:151.869 JLINK_CORESIGHT_ReadAPDPReg(DP reg 0x01)
T90D6F440 000:152.280   Value=0xF0000040
T90D6F440 000:152.284 - 0.415ms returns 0
T90D6F440 000:152.286 JLINK_CORESIGHT_WriteAPDPReg(DP reg 0x00, 0x0000001F)
T90D6F440 000:152.849 - 0.563ms returns 0
T90D6F440 000:152.851 JLINK_CORESIGHT_ReadAPDPReg(DP reg 0x00)
T90D6F440 000:153.268   Value=0x6BA02477
T90D6F440 000:153.270 - 0.419ms returns 0
T90D6F440 000:153.271 JLINK_CORESIGHT_WriteAPDPReg(DP reg 0x01, 0x54000000)
T90D6F440 000:153.847 - 0.577ms returns 0
T90D6F440 000:153.848 JLINK_CORESIGHT_WriteAPDPReg(DP reg 0x01, 0x50000F00)
T90D6F440 000:154.267 - 0.419ms returns 0
T90D6F440 000:154.269 JLINK_CORESIGHT_WriteAPDPReg(DP reg 0x02, 0x01000000)
T90D6F440 000:154.847 - 0.578ms returns 0
T90D6F440 000:154.848 JLINK_CORESIGHT_WriteAPDPReg(AP reg 0x00, 0x80000002)
T90D6F440 000:155.267 - 0.419ms returns 0
T90D6F440 000:155.269 JLINK_CORESIGHT_WriteAPDPReg(AP reg 0x01, 0x80011100)
T90D6F440 000:155.847 - 0.578ms returns 0
T90D6F440 000:155.848 JLINK_CORESIGHT_WriteAPDPReg(AP reg 0x03, 0x000000A5)
T90D6F440 000:156.267 - 0.419ms returns 0
T90D6F440 000:156.269 JLINK_CORESIGHT_WriteAPDPReg(AP reg 0x00, 0x80000002)
T90D6F440 000:156.847 - 0.578ms returns 0
T90D6F440 000:156.848 JLINK_CORESIGHT_WriteAPDPReg(AP reg 0x01, 0x80011100)
T90D6F440 000:157.268 - 0.420ms returns 0
T90D6F440 000:157.269 JLINK_CORESIGHT_ReadAPDPReg(AP reg 0x03)
T90D6F440 000:157.847   Value=0x000000A5
T90D6F440 000:157.848 - 0.579ms returns 0
T90D6F440 000:157.849 JLINK_ClrTMS()
T90D6F440 000:157.917 - 0.068ms 
T90D6F440 000:162.972 JLINK_SetTCK()
T90D6F440 000:163.036 - 0.063ms returns 0
T90D6F440 000:168.090 JLINK_SetRESET()
T90D6F440 000:168.156 - 0.066ms 
T90D6F440 000:368.212 JLINK_CORESIGHT_WriteAPDPReg(AP reg 0x00, 0x80000002)
T90D6F440 000:368.864 - 0.652ms returns 0
T90D6F440 000:368.867 JLINK_CORESIGHT_WriteAPDPReg(AP reg 0x01, 0x80011100)
T90D6F440 000:369.283 - 0.417ms returns 0
T90D6F440 000:369.287 JLINK_CORESIGHT_ReadAPDPReg(AP reg 0x03)
T90D6F440 000:369.863   Value=0x00000000
T90D6F440 000:369.866 - 0.578ms returns 0
T90D6F440 000:369.870 JLINK_CORESIGHT_WriteAPDPReg(AP reg 0x00, 0x80000002)
T90D6F440 000:370.283 - 0.413ms returns 0
T90D6F440 000:370.287 JLINK_CORESIGHT_WriteAPDPReg(AP reg 0x01, 0x80011140)
T90D6F440 000:370.865 - 0.577ms returns 0
T90D6F440 000:370.870 JLINK_CORESIGHT_ReadAPDPReg(AP reg 0x03)
T90D6F440 000:371.284   Value=0x00000002
T90D6F440 000:371.289 - 0.419ms returns 0
T90D6F440 000:371.292 JLINK_CORESIGHT_WriteAPDPReg(AP reg 0x00, 0x80000002)
T90D6F440 000:371.854 - 0.562ms returns 0
T90D6F440 000:371.856 JLINK_CORESIGHT_WriteAPDPReg(AP reg 0x01, 0x80011120)
T90D6F440 000:372.274 - 0.418ms returns 0
T90D6F440 000:372.277 JLINK_CORESIGHT_WriteAPDPReg(AP reg 0x03, 0x00000055)
T90D6F440 000:372.852 - 0.574ms returns 0
T90D6F440 000:372.853 JLINK_CORESIGHT_WriteAPDPReg(AP reg 0x00, 0x80000002)
T90D6F440 000:373.272 - 0.419ms returns 0
T90D6F440 000:373.274 JLINK_CORESIGHT_WriteAPDPReg(AP reg 0x01, 0x80011140)
T90D6F440 000:373.851 - 0.577ms returns 0
T90D6F440 000:373.853 JLINK_CORESIGHT_ReadAPDPReg(AP reg 0x03)
T90D6F440 000:374.272   Value=0x00000002
T90D6F440 000:374.274 - 0.421ms returns 0
T90D6F440 000:374.275 JLINK_CORESIGHT_ReadAPDPReg(AP reg 0x03)
T90D6F440 000:374.852   Value=0x00000002
T90D6F440 000:374.853 - 0.578ms returns 0
T90D6F440 000:374.854 JLINK_CORESIGHT_ReadAPDPReg(AP reg 0x03)
T90D6F440 000:375.272   Value=0x00000002
T90D6F440 000:375.273 - 0.419ms returns 0
T90D6F440 000:375.274 JLINK_CORESIGHT_ReadAPDPReg(AP reg 0x03)
T90D6F440 000:375.852   Value=0x00000002
T90D6F440 000:375.853 - 0.579ms returns 0
T90D6F440 000:375.854 JLINK_CORESIGHT_ReadAPDPReg(AP reg 0x03)
T90D6F440 000:376.273   Value=0x00000002
T90D6F440 000:376.274 - 0.420ms returns 0
T90D6F440 000:376.276 JLINK_CORESIGHT_ReadAPDPReg(AP reg 0x03)
T90D6F440 000:376.851   Value=0x00000002
T90D6F440 000:376.852 - 0.577ms returns 0
T90D6F440 000:376.854 JLINK_CORESIGHT_ReadAPDPReg(AP reg 0x03)
T90D6F440 000:377.272   Value=0x00000002
T90D6F440 000:377.274 - 0.421ms returns 0
T90D6F440 000:377.276 JLINK_CORESIGHT_ReadAPDPReg(AP reg 0x03)
T90D6F440 000:377.851   Value=0x00000002
T90D6F440 000:377.852 - 0.576ms returns 0
T90D6F440 000:377.853 JLINK_CORESIGHT_ReadAPDPReg(AP reg 0x03)
T90D6F440 000:378.272   Value=0x00000002
T90D6F440 000:378.274 - 0.421ms returns 0
T90D6F440 000:378.275 JLINK_CORESIGHT_ReadAPDPReg(AP reg 0x03)
T90D6F440 000:378.852   Value=0x00000002
T90D6F440 000:378.853 - 0.578ms returns 0
T90D6F440 000:378.854 JLINK_CORESIGHT_ReadAPDPReg(AP reg 0x03)
T90D6F440 000:379.272   Value=0x00000002
T90D6F440 000:379.274 - 0.420ms returns 0
T90D6F440 000:379.275 JLINK_CORESIGHT_ReadAPDPReg(AP reg 0x03)
T90D6F440 000:379.851   Value=0x00000002
T90D6F440 000:379.853 - 0.578ms returns 0
T90D6F440 000:379.854 JLINK_CORESIGHT_ReadAPDPReg(AP reg 0x03)
T90D6F440 000:380.272   Value=0x00000002
T90D6F440 000:380.274 - 0.419ms returns 0
T90D6F440 000:380.275 JLINK_CORESIGHT_ReadAPDPReg(AP reg 0x03)
T90D6F440 000:380.851   Value=0x00000002
T90D6F440 000:380.852 - 0.577ms returns 0
T90D6F440 000:380.853 JLINK_CORESIGHT_ReadAPDPReg(AP reg 0x03)
T90D6F440 000:381.272   Value=0x00000002
T90D6F440 000:381.273 - 0.420ms returns 0
T90D6F440 000:381.275 JLINK_CORESIGHT_ReadAPDPReg(AP reg 0x03)
T90D6F440 000:381.851   Value=0x00000002
T90D6F440 000:381.853 - 0.578ms returns 0
T90D6F440 000:381.854 JLINK_CORESIGHT_ReadAPDPReg(AP reg 0x03)
T90D6F440 000:382.272   Value=0x00000002
T90D6F440 000:382.273 - 0.419ms returns 0
T90D6F440 000:382.276 JLINK_CORESIGHT_ReadAPDPReg(AP reg 0x03)
T90D6F440 000:382.852   Value=0x00000002
T90D6F440 000:382.853 - 0.577ms returns 0
T90D6F440 000:382.854 JLINK_CORESIGHT_ReadAPDPReg(AP reg 0x03)
T90D6F440 000:383.271   Value=0x00000002
T90D6F440 000:383.273 - 0.419ms returns 0
T90D6F440 000:383.274 JLINK_CORESIGHT_ReadAPDPReg(AP reg 0x03)
T90D6F440 000:383.851   Value=0x00000002
T90D6F440 000:383.852 - 0.578ms returns 0
T90D6F440 000:383.853 JLINK_CORESIGHT_ReadAPDPReg(AP reg 0x03)
T90D6F440 000:384.272   Value=0x00000002
T90D6F440 000:384.274 - 0.420ms returns 0
T90D6F440 000:384.275 JLINK_CORESIGHT_ReadAPDPReg(AP reg 0x03)
T90D6F440 000:384.852   Value=0x00000000
T90D6F440 000:384.853 - 0.578ms returns 0
T90D6F440 000:384.854 JLINK_CORESIGHT_WriteAPDPReg(AP reg 0x00, 0x80000002)
T90D6F440 000:385.273 - 0.419ms returns 0
T90D6F440 000:385.275 JLINK_CORESIGHT_WriteAPDPReg(AP reg 0x01, 0x80011130)
T90D6F440 000:385.852 - 0.577ms returns 0
T90D6F440 000:385.853 JLINK_CORESIGHT_ReadAPDPReg(AP reg 0x03)
T90D6F440 000:386.272   Value=0x000000C6
T90D6F440 000:386.273 - 0.420ms returns 0
T90D6F440 000:386.281 JLINK_CORESIGHT_WriteAPDPReg(AP reg 0x00, 0x80000002)
T90D6F440 000:386.852 - 0.571ms returns 0
T90D6F440 000:386.853 JLINK_CORESIGHT_WriteAPDPReg(AP reg 0x01, 0x80011140)
T90D6F440 000:387.273 - 0.420ms returns 0
T90D6F440 000:387.274 JLINK_CORESIGHT_ReadAPDPReg(AP reg 0x03)
T90D6F440 000:387.851   Value=0x00000002
T90D6F440 000:387.852 - 0.578ms returns 0
T90D6F440 000:387.853 JLINK_CORESIGHT_WriteAPDPReg(AP reg 0x00, 0x80000002)
T90D6F440 000:388.272 - 0.419ms returns 0
T90D6F440 000:388.274 JLINK_CORESIGHT_WriteAPDPReg(AP reg 0x01, 0x80011120)
T90D6F440 000:388.852 - 0.579ms returns 0
T90D6F440 000:388.853 JLINK_CORESIGHT_WriteAPDPReg(AP reg 0x03, 0x3A010001)
T90D6F440 000:389.273 - 0.419ms returns 0
T90D6F440 000:389.274 JLINK_CORESIGHT_WriteAPDPReg(AP reg 0x00, 0x80000002)
T90D6F440 000:389.852 - 0.578ms returns 0
T90D6F440 000:389.853 JLINK_CORESIGHT_WriteAPDPReg(AP reg 0x01, 0x80011140)
T90D6F440 000:390.273 - 0.420ms returns 0
T90D6F440 000:390.274 JLINK_CORESIGHT_ReadAPDPReg(AP reg 0x03)
T90D6F440 000:390.852   Value=0x00000002
T90D6F440 000:390.853 - 0.579ms returns 0
T90D6F440 000:390.854 JLINK_CORESIGHT_WriteAPDPReg(AP reg 0x00, 0x80000002)
T90D6F440 000:391.272 - 0.418ms returns 0
T90D6F440 000:391.274 JLINK_CORESIGHT_WriteAPDPReg(AP reg 0x01, 0x80011120)
T90D6F440 000:391.852 - 0.579ms returns 0
T90D6F440 000:391.853 JLINK_CORESIGHT_WriteAPDPReg(AP reg 0x03, 0x000003C5)
T90D6F440 000:392.273 - 0.420ms returns 0
T90D6F440 000:392.274 JLINK_CORESIGHT_WriteAPDPReg(AP reg 0x00, 0x80000002)
T90D6F440 000:392.852 - 0.578ms returns 0
T90D6F440 000:392.853 JLINK_CORESIGHT_WriteAPDPReg(AP reg 0x01, 0x80011140)
T90D6F440 000:393.272 - 0.419ms returns 0
T90D6F440 000:393.274 JLINK_CORESIGHT_ReadAPDPReg(AP reg 0x03)
T90D6F440 000:393.852   Value=0x00000000
T90D6F440 000:393.853 - 0.579ms returns 0
T90D6F440 000:393.854 JLINK_CORESIGHT_WriteAPDPReg(AP reg 0x00, 0x80000002)
T90D6F440 000:394.273 - 0.419ms returns 0
T90D6F440 000:394.274 JLINK_CORESIGHT_WriteAPDPReg(AP reg 0x01, 0x80011130)
T90D6F440 000:394.852 - 0.578ms returns 0
T90D6F440 000:394.854 JLINK_CORESIGHT_ReadAPDPReg(AP reg 0x03)
T90D6F440 000:395.273   Value=0x3A2A0081
T90D6F440 000:395.274 - 0.420ms returns 0
T90D6F440 000:395.275 JLINK_CORESIGHT_WriteAPDPReg(AP reg 0x00, 0x80000002)
T90D6F440 000:395.852 - 0.576ms returns 0
T90D6F440 000:395.853 JLINK_CORESIGHT_WriteAPDPReg(AP reg 0x01, 0x80011140)
T90D6F440 000:396.272 - 0.420ms returns 0
T90D6F440 000:396.273 JLINK_CORESIGHT_ReadAPDPReg(AP reg 0x03)
T90D6F440 000:396.852   Value=0x00000000
T90D6F440 000:396.853 - 0.580ms returns 0
T90D6F440 000:396.854 JLINK_CORESIGHT_WriteAPDPReg(AP reg 0x00, 0x80000002)
T90D6F440 000:397.273 - 0.419ms returns 0
T90D6F440 000:397.274 JLINK_CORESIGHT_WriteAPDPReg(AP reg 0x01, 0x80011130)
T90D6F440 000:397.852 - 0.577ms returns 0
T90D6F440 000:397.852 JLINK_CORESIGHT_ReadAPDPReg(AP reg 0x03)
T90D6F440 000:398.272   Value=0x808D5B00
T90D6F440 000:398.274 - 0.422ms returns 0
T90D6F440 000:398.275 JLINK_CORESIGHT_WriteAPDPReg(AP reg 0x00, 0x80000002)
T90D6F440 000:398.851 - 0.576ms returns 0
T90D6F440 000:398.852 JLINK_CORESIGHT_WriteAPDPReg(AP reg 0x01, 0x80011140)
T90D6F440 000:399.273 - 0.421ms returns 0
T90D6F440 000:399.274 JLINK_CORESIGHT_ReadAPDPReg(AP reg 0x03)
T90D6F440 000:399.852   Value=0x00000000
T90D6F440 000:399.853 - 0.579ms returns 0
T90D6F440 000:399.854 JLINK_CORESIGHT_WriteAPDPReg(AP reg 0x00, 0x80000002)
T90D6F440 000:400.273 - 0.419ms returns 0
T90D6F440 000:400.274 JLINK_CORESIGHT_WriteAPDPReg(AP reg 0x01, 0x80011130)
T90D6F440 000:400.852 - 0.578ms returns 0
T90D6F440 000:400.853 JLINK_CORESIGHT_ReadAPDPReg(AP reg 0x03)
T90D6F440 000:401.273   Value=0x0406070A
T90D6F440 000:401.274 - 0.421ms returns 0
T90D6F440 000:401.275 JLINK_CORESIGHT_WriteAPDPReg(AP reg 0x00, 0x80000002)
T90D6F440 000:401.852 - 0.577ms returns 0
T90D6F440 000:401.853 JLINK_CORESIGHT_WriteAPDPReg(AP reg 0x01, 0x80011140)
T90D6F440 000:402.273 - 0.419ms returns 0
T90D6F440 000:402.274 JLINK_CORESIGHT_ReadAPDPReg(AP reg 0x03)
T90D6F440 000:402.851   Value=0x00000000
T90D6F440 000:402.852 - 0.578ms returns 0
T90D6F440 000:402.853 JLINK_CORESIGHT_WriteAPDPReg(AP reg 0x00, 0x80000002)
T90D6F440 000:403.273 - 0.420ms returns 0
T90D6F440 000:403.274 JLINK_CORESIGHT_WriteAPDPReg(AP reg 0x01, 0x80011130)
T90D6F440 000:403.852 - 0.578ms returns 0
T90D6F440 000:403.853 JLINK_CORESIGHT_ReadAPDPReg(AP reg 0x03)
T90D6F440 000:404.272   Value=0x3254540B
T90D6F440 000:404.274 - 0.421ms returns 0
T90D6F440 000:404.274 JLINK_CORESIGHT_WriteAPDPReg(AP reg 0x00, 0x80000002)
T90D6F440 000:404.852 - 0.578ms returns 0
T90D6F440 000:404.853 JLINK_CORESIGHT_WriteAPDPReg(AP reg 0x01, 0x80011140)
T90D6F440 000:405.273 - 0.419ms returns 0
T90D6F440 000:405.274 JLINK_CORESIGHT_ReadAPDPReg(AP reg 0x03)
T90D6F440 000:405.852   Value=0x00000000
T90D6F440 000:405.853 - 0.579ms returns 0
T90D6F440 000:405.854 JLINK_CORESIGHT_WriteAPDPReg(AP reg 0x00, 0x80000002)
T90D6F440 000:406.273 - 0.419ms returns 0
T90D6F440 000:406.274 JLINK_CORESIGHT_WriteAPDPReg(AP reg 0x01, 0x80011130)
T90D6F440 000:406.852 - 0.578ms returns 0
T90D6F440 000:406.853 JLINK_CORESIGHT_ReadAPDPReg(AP reg 0x03)
T90D6F440 000:407.273   Value=0x54AD1E59
T90D6F440 000:407.274 - 0.421ms returns 0
T90D6F440 000:407.275 JLINK_CORESIGHT_WriteAPDPReg(AP reg 0x00, 0x80000002)
T90D6F440 000:407.852 - 0.577ms returns 0
T90D6F440 000:407.853 JLINK_CORESIGHT_WriteAPDPReg(AP reg 0x01, 0x80011140)
T90D6F440 000:408.273 - 0.420ms returns 0
T90D6F440 000:408.274 JLINK_CORESIGHT_ReadAPDPReg(AP reg 0x03)
T90D6F440 000:408.852   Value=0x00000000
T90D6F440 000:408.853 - 0.579ms returns 0
T90D6F440 000:408.854 JLINK_CORESIGHT_WriteAPDPReg(AP reg 0x00, 0x80000002)
T90D6F440 000:409.273 - 0.419ms returns 0
T90D6F440 000:409.274 JLINK_CORESIGHT_WriteAPDPReg(AP reg 0x01, 0x80011130)
T90D6F440 000:409.852 - 0.578ms returns 0
T90D6F440 000:409.853 JLINK_CORESIGHT_ReadAPDPReg(AP reg 0x03)
T90D6F440 000:410.273   Value=0x34325736
T90D6F440 000:410.274 - 0.421ms returns 0
T90D6F440 000:410.275 JLINK_CORESIGHT_WriteAPDPReg(AP reg 0x00, 0x80000002)
T90D6F440 000:410.852 - 0.577ms returns 0
T90D6F440 000:410.853 JLINK_CORESIGHT_WriteAPDPReg(AP reg 0x01, 0x80011140)
T90D6F440 000:411.273 - 0.420ms returns 0
T90D6F440 000:411.274 JLINK_CORESIGHT_ReadAPDPReg(AP reg 0x03)
T90D6F440 000:411.853   Value=0x00000000
T90D6F440 000:411.854 - 0.580ms returns 0
T90D6F440 000:411.855 JLINK_CORESIGHT_WriteAPDPReg(AP reg 0x00, 0x80000002)
T90D6F440 000:412.274 - 0.419ms returns 0
T90D6F440 000:412.276 JLINK_CORESIGHT_WriteAPDPReg(AP reg 0x01, 0x80011130)
T90D6F440 000:412.852 - 0.576ms returns 0
T90D6F440 000:412.854 JLINK_CORESIGHT_ReadAPDPReg(AP reg 0x03)
T90D6F440 000:413.272   Value=0x640A2D30
T90D6F440 000:413.274 - 0.421ms returns 0
T90D6F440 000:413.275 JLINK_CORESIGHT_WriteAPDPReg(AP reg 0x00, 0x80000002)
T90D6F440 000:413.852 - 0.577ms returns 0
T90D6F440 000:413.854 JLINK_CORESIGHT_WriteAPDPReg(AP reg 0x01, 0x80011140)
T90D6F440 000:414.273 - 0.419ms returns 0
T90D6F440 000:414.274 JLINK_CORESIGHT_ReadAPDPReg(AP reg 0x03)
T90D6F440 000:414.852   Value=0x00000000
T90D6F440 000:414.853 - 0.579ms returns 0
T90D6F440 000:414.854 JLINK_CORESIGHT_WriteAPDPReg(AP reg 0x00, 0x80000002)
T90D6F440 000:415.273 - 0.419ms returns 0
T90D6F440 000:415.275 JLINK_CORESIGHT_WriteAPDPReg(AP reg 0x01, 0x80011130)
T90D6F440 000:415.852 - 0.577ms returns 0
T90D6F440 000:415.853 JLINK_CORESIGHT_ReadAPDPReg(AP reg 0x03)
T90D6F440 000:416.272   Value=0x4B375275
T90D6F440 000:416.274 - 0.420ms returns 0
T90D6F440 000:416.275 JLINK_CORESIGHT_WriteAPDPReg(AP reg 0x00, 0x80000002)
T90D6F440 000:416.852 - 0.577ms returns 0
T90D6F440 000:416.854 JLINK_CORESIGHT_WriteAPDPReg(AP reg 0x01, 0x80011140)
T90D6F440 000:417.273 - 0.419ms returns 0
T90D6F440 000:417.275 JLINK_CORESIGHT_ReadAPDPReg(AP reg 0x03)
T90D6F440 000:417.852   Value=0x00000000
T90D6F440 000:417.853 - 0.578ms returns 0
T90D6F440 000:417.854 JLINK_CORESIGHT_WriteAPDPReg(AP reg 0x00, 0x80000002)
T90D6F440 000:418.273 - 0.419ms returns 0
T90D6F440 000:418.274 JLINK_CORESIGHT_WriteAPDPReg(AP reg 0x01, 0x80011130)
T90D6F440 000:418.852 - 0.578ms returns 0
T90D6F440 000:418.853 JLINK_CORESIGHT_ReadAPDPReg(AP reg 0x03)
T90D6F440 000:419.273   Value=0x31503841
T90D6F440 000:419.275 - 0.421ms returns 0
T90D6F440 000:419.276 JLINK_CORESIGHT_WriteAPDPReg(AP reg 0x00, 0x80000002)
T90D6F440 000:419.852 - 0.576ms returns 0
T90D6F440 000:419.854 JLINK_CORESIGHT_WriteAPDPReg(AP reg 0x01, 0x80011140)
T90D6F440 000:420.273 - 0.419ms returns 0
T90D6F440 000:420.275 JLINK_CORESIGHT_ReadAPDPReg(AP reg 0x03)
T90D6F440 000:420.852   Value=0x00000000
T90D6F440 000:420.853 - 0.579ms returns 0
T90D6F440 000:420.855 JLINK_CORESIGHT_WriteAPDPReg(AP reg 0x00, 0x80000002)
T90D6F440 000:421.273 - 0.418ms returns 0
T90D6F440 000:421.275 JLINK_CORESIGHT_WriteAPDPReg(AP reg 0x01, 0x80011130)
T90D6F440 000:421.852 - 0.577ms returns 0
T90D6F440 000:421.854 JLINK_CORESIGHT_ReadAPDPReg(AP reg 0x03)
T90D6F440 000:422.273   Value=0x434C464B
T90D6F440 000:422.275 - 0.421ms returns 0
T90D6F440 000:422.276 JLINK_CORESIGHT_WriteAPDPReg(AP reg 0x00, 0x80000002)
T90D6F440 000:422.853 - 0.577ms returns 0
T90D6F440 000:422.854 JLINK_CORESIGHT_WriteAPDPReg(AP reg 0x01, 0x80011140)
T90D6F440 000:423.273 - 0.419ms returns 0
T90D6F440 000:423.274 JLINK_CORESIGHT_ReadAPDPReg(AP reg 0x03)
T90D6F440 000:423.852   Value=0x00000000
T90D6F440 000:423.853 - 0.579ms returns 0
T90D6F440 000:423.855 JLINK_CORESIGHT_WriteAPDPReg(AP reg 0x00, 0x80000002)
T90D6F440 000:424.273 - 0.418ms returns 0
T90D6F440 000:424.275 JLINK_CORESIGHT_WriteAPDPReg(AP reg 0x01, 0x80011130)
T90D6F440 000:424.852 - 0.578ms returns 0
T90D6F440 000:424.853 JLINK_CORESIGHT_ReadAPDPReg(AP reg 0x03)
T90D6F440 000:425.273   Value=0x20204341
T90D6F440 000:425.274 - 0.421ms returns 0
T90D6F440 000:425.275 JLINK_CORESIGHT_WriteAPDPReg(AP reg 0x00, 0x80000002)
T90D6F440 000:425.852 - 0.577ms returns 0
T90D6F440 000:425.854 JLINK_CORESIGHT_WriteAPDPReg(AP reg 0x01, 0x80011140)
T90D6F440 000:426.273 - 0.419ms returns 0
T90D6F440 000:426.275 JLINK_CORESIGHT_ReadAPDPReg(AP reg 0x03)
T90D6F440 000:426.852   Value=0x00000000
T90D6F440 000:426.853 - 0.578ms returns 0
T90D6F440 000:426.855 JLINK_CORESIGHT_WriteAPDPReg(AP reg 0x00, 0x80000002)
T90D6F440 000:427.274 - 0.418ms returns 0
T90D6F440 000:427.275 JLINK_CORESIGHT_WriteAPDPReg(AP reg 0x01, 0x80011130)
T90D6F440 000:427.852 - 0.577ms returns 0
T90D6F440 000:427.854 JLINK_CORESIGHT_ReadAPDPReg(AP reg 0x03)
T90D6F440 000:428.274   Value=0x0003B720
T90D6F440 000:428.275 - 0.421ms returns 0
T90D6F440 000:428.374 JLINK_CORESIGHT_WriteAPDPReg(AP reg 0x00, 0x80000002)
T90D6F440 000:428.853 - 0.479ms returns 0
T90D6F440 000:428.854 JLINK_CORESIGHT_WriteAPDPReg(AP reg 0x01, 0x80011140)
T90D6F440 000:429.273 - 0.419ms returns 0
T90D6F440 000:429.275 JLINK_CORESIGHT_ReadAPDPReg(AP reg 0x03)
T90D6F440 000:429.854   Value=0x00000002
T90D6F440 000:429.857 - 0.582ms returns 0
T90D6F440 000:429.858 JLINK_CORESIGHT_WriteAPDPReg(AP reg 0x00, 0x80000002)
T90D6F440 000:430.273 - 0.415ms returns 0
T90D6F440 000:430.274 JLINK_CORESIGHT_WriteAPDPReg(AP reg 0x01, 0x80011120)
T90D6F440 000:430.852 - 0.578ms returns 0
T90D6F440 000:430.853 JLINK_CORESIGHT_WriteAPDPReg(AP reg 0x03, 0x52020001)
T90D6F440 000:431.273 - 0.420ms returns 0
T90D6F440 000:431.274 JLINK_CORESIGHT_WriteAPDPReg(AP reg 0x00, 0x80000002)
T90D6F440 000:431.852 - 0.578ms returns 0
T90D6F440 000:431.853 JLINK_CORESIGHT_WriteAPDPReg(AP reg 0x01, 0x80011140)
T90D6F440 000:432.273 - 0.420ms returns 0
T90D6F440 000:432.274 JLINK_CORESIGHT_ReadAPDPReg(AP reg 0x03)
T90D6F440 000:432.852   Value=0x00000002
T90D6F440 000:432.854 - 0.579ms returns 0
T90D6F440 000:432.854 JLINK_CORESIGHT_WriteAPDPReg(AP reg 0x00, 0x80000002)
T90D6F440 000:433.273 - 0.419ms returns 0
T90D6F440 000:433.274 JLINK_CORESIGHT_WriteAPDPReg(AP reg 0x01, 0x80011120)
T90D6F440 000:433.853 - 0.579ms returns 0
T90D6F440 000:433.854 JLINK_CORESIGHT_WriteAPDPReg(AP reg 0x03, 0x0003A705)
T90D6F440 000:434.273 - 0.419ms returns 0
T90D6F440 000:434.274 JLINK_CORESIGHT_WriteAPDPReg(AP reg 0x00, 0x80000002)
T90D6F440 000:434.852 - 0.578ms returns 0
T90D6F440 000:434.853 JLINK_CORESIGHT_WriteAPDPReg(AP reg 0x01, 0x80011140)
T90D6F440 000:435.273 - 0.420ms returns 0
T90D6F440 000:435.274 JLINK_CORESIGHT_ReadAPDPReg(AP reg 0x03)
T90D6F440 000:435.853   Value=0x00000002
T90D6F440 000:435.854 - 0.580ms returns 0
T90D6F440 000:435.855 JLINK_CORESIGHT_ReadAPDPReg(AP reg 0x03)
T90D6F440 000:436.273   Value=0x00000002
T90D6F440 000:436.274 - 0.419ms returns 0
T90D6F440 000:436.275 JLINK_CORESIGHT_ReadAPDPReg(AP reg 0x03)
T90D6F440 000:436.853   Value=0x00000002
T90D6F440 000:436.854 - 0.578ms returns 0
T90D6F440 000:436.854 JLINK_CORESIGHT_ReadAPDPReg(AP reg 0x03)
T90D6F440 000:437.274   Value=0x00000000
T90D6F440 000:437.275 - 0.421ms returns 0
T90D6F440 000:437.276 JLINK_CORESIGHT_WriteAPDPReg(AP reg 0x00, 0x80000002)
T90D6F440 000:437.853 - 0.577ms returns 0
T90D6F440 000:437.854 JLINK_CORESIGHT_WriteAPDPReg(AP reg 0x01, 0x80011130)
T90D6F440 000:438.274 - 0.420ms returns 0
T90D6F440 000:438.275 JLINK_CORESIGHT_ReadAPDPReg(AP reg 0x03)
T90D6F440 000:438.852   Value=0x52020081
T90D6F440 000:438.853 - 0.578ms returns 0
T90D6F440 000:438.854 JLINK_CORESIGHT_WriteAPDPReg(AP reg 0x00, 0x80000002)
T90D6F440 000:439.274 - 0.419ms returns 0
T90D6F440 000:439.275 JLINK_CORESIGHT_WriteAPDPReg(AP reg 0x01, 0x80011140)
T90D6F440 000:439.852 - 0.577ms returns 0
T90D6F440 000:439.853 JLINK_CORESIGHT_ReadAPDPReg(AP reg 0x03)
T90D6F440 000:440.273   Value=0x00000000
T90D6F440 000:440.274 - 0.421ms returns 0
T90D6F440 000:440.275 JLINK_CORESIGHT_WriteAPDPReg(AP reg 0x00, 0x80000002)
T90D6F440 000:440.852 - 0.577ms returns 0
T90D6F440 000:440.853 JLINK_CORESIGHT_WriteAPDPReg(AP reg 0x01, 0x80011130)
T90D6F440 000:441.274 - 0.421ms returns 0
T90D6F440 000:441.275 JLINK_CORESIGHT_ReadAPDPReg(AP reg 0x03)
T90D6F440 000:441.853   Value=0x0003A507
T90D6F440 000:441.854 - 0.579ms returns 0
T90D6F440 000:441.855 JLINK_CORESIGHT_WriteAPDPReg(AP reg 0x00, 0x80000002)
T90D6F440 000:442.274 - 0.419ms returns 0
T90D6F440 000:442.275 JLINK_CORESIGHT_WriteAPDPReg(AP reg 0x01, 0x80011140)
T90D6F440 000:442.853 - 0.578ms returns 0
T90D6F440 000:442.854 JLINK_CORESIGHT_ReadAPDPReg(AP reg 0x03)
T90D6F440 000:443.273   Value=0x00000002
T90D6F440 000:443.275 - 0.421ms returns 0
T90D6F440 000:443.275 JLINK_CORESIGHT_WriteAPDPReg(AP reg 0x00, 0x80000002)
T90D6F440 000:443.853 - 0.577ms returns 0
T90D6F440 000:443.854 JLINK_CORESIGHT_WriteAPDPReg(AP reg 0x01, 0x80011120)
T90D6F440 000:444.274 - 0.420ms returns 0
T90D6F440 000:444.275 JLINK_CORESIGHT_WriteAPDPReg(AP reg 0x03, 0x15090001)
T90D6F440 000:444.853 - 0.578ms returns 0
T90D6F440 000:444.854 JLINK_CORESIGHT_WriteAPDPReg(AP reg 0x00, 0x80000002)
T90D6F440 000:445.273 - 0.419ms returns 0
T90D6F440 000:445.274 JLINK_CORESIGHT_WriteAPDPReg(AP reg 0x01, 0x80011140)
T90D6F440 000:445.853 - 0.579ms returns 0
T90D6F440 000:445.854 JLINK_CORESIGHT_ReadAPDPReg(AP reg 0x03)
T90D6F440 000:446.274   Value=0x00000002
T90D6F440 000:446.275 - 0.421ms returns 0
T90D6F440 000:446.276 JLINK_CORESIGHT_WriteAPDPReg(AP reg 0x00, 0x80000002)
T90D6F440 000:446.853 - 0.576ms returns 0
T90D6F440 000:446.854 JLINK_CORESIGHT_WriteAPDPReg(AP reg 0x01, 0x80011120)
T90D6F440 000:447.274 - 0.420ms returns 0
T90D6F440 000:447.275 JLINK_CORESIGHT_WriteAPDPReg(AP reg 0x03, 0x40F0C902)
T90D6F440 000:447.853 - 0.578ms returns 0
T90D6F440 000:447.854 JLINK_CORESIGHT_WriteAPDPReg(AP reg 0x00, 0x80000002)
T90D6F440 000:448.273 - 0.419ms returns 0
T90D6F440 000:448.274 JLINK_CORESIGHT_WriteAPDPReg(AP reg 0x01, 0x80011140)
T90D6F440 000:448.853 - 0.579ms returns 0
T90D6F440 000:448.854 JLINK_CORESIGHT_ReadAPDPReg(AP reg 0x03)
T90D6F440 000:449.273   Value=0x00000002
T90D6F440 000:449.275 - 0.420ms returns 0
T90D6F440 000:449.275 JLINK_CORESIGHT_WriteAPDPReg(AP reg 0x00, 0x80000002)
T90D6F440 000:449.853 - 0.578ms returns 0
T90D6F440 000:449.854 JLINK_CORESIGHT_WriteAPDPReg(AP reg 0x01, 0x80011120)
T90D6F440 000:450.273 - 0.419ms returns 0
T90D6F440 000:450.274 JLINK_CORESIGHT_WriteAPDPReg(AP reg 0x03, 0x4FF0C902)
T90D6F440 000:450.853 - 0.579ms returns 0
T90D6F440 000:450.854 JLINK_CORESIGHT_WriteAPDPReg(AP reg 0x00, 0x80000002)
T90D6F440 000:451.274 - 0.420ms returns 0
T90D6F440 000:451.275 JLINK_CORESIGHT_WriteAPDPReg(AP reg 0x01, 0x80011140)
T90D6F440 000:451.853 - 0.578ms returns 0
T90D6F440 000:451.854 JLINK_CORESIGHT_ReadAPDPReg(AP reg 0x03)
T90D6F440 000:452.273   Value=0x00000002
T90D6F440 000:452.274 - 0.420ms returns 0
T90D6F440 000:452.275 JLINK_CORESIGHT_WriteAPDPReg(AP reg 0x00, 0x80000002)
T90D6F440 000:452.853 - 0.578ms returns 0
T90D6F440 000:452.854 JLINK_CORESIGHT_WriteAPDPReg(AP reg 0x01, 0x80011120)
T90D6F440 000:453.273 - 0.419ms returns 0
T90D6F440 000:453.274 JLINK_CORESIGHT_WriteAPDPReg(AP reg 0x03, 0x000003DD)
T90D6F440 000:453.853 - 0.579ms returns 0
T90D6F440 000:453.854 JLINK_CORESIGHT_WriteAPDPReg(AP reg 0x00, 0x80000002)
T90D6F440 000:454.273 - 0.419ms returns 0
T90D6F440 000:454.275 JLINK_CORESIGHT_WriteAPDPReg(AP reg 0x01, 0x80011140)
T90D6F440 000:454.853 - 0.578ms returns 0
T90D6F440 000:454.855 JLINK_CORESIGHT_ReadAPDPReg(AP reg 0x03)
T90D6F440 000:455.273   Value=0x00000002
T90D6F440 000:455.275 - 0.419ms returns 0
T90D6F440 000:455.276 JLINK_CORESIGHT_ReadAPDPReg(AP reg 0x03)
T90D6F440 000:455.853   Value=0x00000002
T90D6F440 000:455.854 - 0.578ms returns 0
T90D6F440 000:455.855 JLINK_CORESIGHT_ReadAPDPReg(AP reg 0x03)
T90D6F440 000:456.274   Value=0x00000000
T90D6F440 000:456.275 - 0.420ms returns 0
T90D6F440 000:456.276 JLINK_CORESIGHT_WriteAPDPReg(AP reg 0x00, 0x80000002)
T90D6F440 000:456.853 - 0.577ms returns 0
T90D6F440 000:456.854 JLINK_CORESIGHT_WriteAPDPReg(AP reg 0x01, 0x80011130)
T90D6F440 000:457.274 - 0.420ms returns 0
T90D6F440 000:457.276 JLINK_CORESIGHT_ReadAPDPReg(AP reg 0x03)
T90D6F440 000:457.853   Value=0x15110081
T90D6F440 000:457.854 - 0.578ms returns 0
T90D6F440 000:457.855 JLINK_CORESIGHT_WriteAPDPReg(AP reg 0x00, 0x80000002)
T90D6F440 000:458.274 - 0.419ms returns 0
T90D6F440 000:458.275 JLINK_CORESIGHT_WriteAPDPReg(AP reg 0x01, 0x80011140)
T90D6F440 000:458.853 - 0.578ms returns 0
T90D6F440 000:458.855 JLINK_CORESIGHT_ReadAPDPReg(AP reg 0x03)
T90D6F440 000:459.274   Value=0x00000000
T90D6F440 000:459.275 - 0.421ms returns 0
T90D6F440 000:459.277 JLINK_CORESIGHT_WriteAPDPReg(AP reg 0x00, 0x80000002)
T90D6F440 000:459.853 - 0.576ms returns 0
T90D6F440 000:459.855 JLINK_CORESIGHT_WriteAPDPReg(AP reg 0x01, 0x80011130)
T90D6F440 000:460.274 - 0.419ms returns 0
T90D6F440 000:460.276 JLINK_CORESIGHT_ReadAPDPReg(AP reg 0x03)
T90D6F440 000:460.853   Value=0xFFFFFFFF
T90D6F440 000:460.855 - 0.578ms returns 0
T90D6F440 000:460.856 JLINK_CORESIGHT_WriteAPDPReg(AP reg 0x00, 0x80000002)
T90D6F440 000:461.274 - 0.418ms returns 0
T90D6F440 000:461.276 JLINK_CORESIGHT_WriteAPDPReg(AP reg 0x01, 0x80011140)
T90D6F440 000:461.853 - 0.577ms returns 0
T90D6F440 000:461.855 JLINK_CORESIGHT_ReadAPDPReg(AP reg 0x03)
T90D6F440 000:462.274   Value=0x00000000
T90D6F440 000:462.276 - 0.420ms returns 0
T90D6F440 000:462.277 JLINK_CORESIGHT_WriteAPDPReg(AP reg 0x00, 0x80000002)
T90D6F440 000:462.853 - 0.576ms returns 0
T90D6F440 000:462.855 JLINK_CORESIGHT_WriteAPDPReg(AP reg 0x01, 0x80011130)
T90D6F440 000:463.274 - 0.419ms returns 0
T90D6F440 000:463.275 JLINK_CORESIGHT_ReadAPDPReg(AP reg 0x03)
T90D6F440 000:463.853   Value=0xFFFFFFEF
T90D6F440 000:463.855 - 0.580ms returns 0
T90D6F440 000:463.856 JLINK_CORESIGHT_WriteAPDPReg(AP reg 0x00, 0x80000002)
T90D6F440 000:464.274 - 0.418ms returns 0
T90D6F440 000:464.276 JLINK_CORESIGHT_WriteAPDPReg(AP reg 0x01, 0x80011140)
T90D6F440 000:464.853 - 0.577ms returns 0
T90D6F440 000:464.855 JLINK_CORESIGHT_ReadAPDPReg(AP reg 0x03)
T90D6F440 000:465.274   Value=0x00000000
T90D6F440 000:465.275 - 0.420ms returns 0
T90D6F440 000:465.276 JLINK_CORESIGHT_WriteAPDPReg(AP reg 0x00, 0x80000002)
T90D6F440 000:465.854 - 0.578ms returns 0
T90D6F440 000:465.855 JLINK_CORESIGHT_WriteAPDPReg(AP reg 0x01, 0x80011130)
T90D6F440 000:466.276 - 0.421ms returns 0
T90D6F440 000:466.277 JLINK_CORESIGHT_ReadAPDPReg(AP reg 0x03)
T90D6F440 000:466.855   Value=0xFFFFFFFF
T90D6F440 000:466.856 - 0.579ms returns 0
T90D6F440 000:466.857 JLINK_CORESIGHT_WriteAPDPReg(AP reg 0x00, 0x80000002)
T90D6F440 000:467.274 - 0.417ms returns 0
T90D6F440 000:467.276 JLINK_CORESIGHT_WriteAPDPReg(AP reg 0x01, 0x80011140)
T90D6F440 000:467.873 - 0.596ms returns 0
T90D6F440 000:467.874 JLINK_CORESIGHT_ReadAPDPReg(AP reg 0x03)
T90D6F440 000:468.278   Value=0x00000000
T90D6F440 000:468.279 - 0.405ms returns 0
T90D6F440 000:468.281 JLINK_CORESIGHT_WriteAPDPReg(AP reg 0x00, 0x80000002)
T90D6F440 000:468.854 - 0.573ms returns 0
T90D6F440 000:468.855 JLINK_CORESIGHT_WriteAPDPReg(AP reg 0x01, 0x80011130)
T90D6F440 000:469.274 - 0.419ms returns 0
T90D6F440 000:469.276 JLINK_CORESIGHT_ReadAPDPReg(AP reg 0x03)
T90D6F440 000:469.854   Value=0xFFFFFFFF
T90D6F440 000:469.855 - 0.579ms returns 0
T90D6F440 000:469.856 JLINK_CORESIGHT_WriteAPDPReg(AP reg 0x00, 0x80000002)
T90D6F440 000:470.275 - 0.419ms returns 0
T90D6F440 000:470.277 JLINK_CORESIGHT_WriteAPDPReg(AP reg 0x01, 0x80011140)
T90D6F440 000:470.854 - 0.577ms returns 0
T90D6F440 000:470.855 JLINK_CORESIGHT_ReadAPDPReg(AP reg 0x03)
T90D6F440 000:471.274   Value=0x00000000
T90D6F440 000:471.276 - 0.420ms returns 0
T90D6F440 000:471.277 JLINK_CORESIGHT_WriteAPDPReg(AP reg 0x00, 0x80000002)
T90D6F440 000:471.853 - 0.576ms returns 0
T90D6F440 000:471.855 JLINK_CORESIGHT_WriteAPDPReg(AP reg 0x01, 0x80011130)
T90D6F440 000:472.275 - 0.420ms returns 0
T90D6F440 000:472.276 JLINK_CORESIGHT_ReadAPDPReg(AP reg 0x03)
T90D6F440 000:472.854   Value=0x000003FA
T90D6F440 000:472.855 - 0.579ms returns 0
T90D6F440 000:472.861 JLINK_CORESIGHT_WriteAPDPReg(AP reg 0x00, 0x80000002)
T90D6F440 000:473.274 - 0.413ms returns 0
T90D6F440 000:473.276 JLINK_CORESIGHT_WriteAPDPReg(AP reg 0x01, 0x80011140)
T90D6F440 000:473.854 - 0.578ms returns 0
T90D6F440 000:473.855 JLINK_CORESIGHT_ReadAPDPReg(AP reg 0x03)
T90D6F440 000:474.275   Value=0x00000002
T90D6F440 000:474.276 - 0.421ms returns 0
T90D6F440 000:474.277 JLINK_CORESIGHT_WriteAPDPReg(AP reg 0x00, 0x80000002)
T90D6F440 000:474.854 - 0.577ms returns 0
T90D6F440 000:474.855 JLINK_CORESIGHT_WriteAPDPReg(AP reg 0x01, 0x80011120)
T90D6F440 000:475.275 - 0.420ms returns 0
T90D6F440 000:475.276 JLINK_CORESIGHT_WriteAPDPReg(AP reg 0x03, 0x39020001)
T90D6F440 000:475.854 - 0.578ms returns 0
T90D6F440 000:475.855 JLINK_CORESIGHT_WriteAPDPReg(AP reg 0x00, 0x80000002)
T90D6F440 000:476.275 - 0.420ms returns 0
T90D6F440 000:476.276 JLINK_CORESIGHT_WriteAPDPReg(AP reg 0x01, 0x80011140)
T90D6F440 000:476.854 - 0.578ms returns 0
T90D6F440 000:476.855 JLINK_CORESIGHT_ReadAPDPReg(AP reg 0x03)
T90D6F440 000:477.274   Value=0x00000002
T90D6F440 000:477.276 - 0.421ms returns 0
T90D6F440 000:477.276 JLINK_CORESIGHT_WriteAPDPReg(AP reg 0x00, 0x80000002)
T90D6F440 000:477.854 - 0.578ms returns 0
T90D6F440 000:477.855 JLINK_CORESIGHT_WriteAPDPReg(AP reg 0x01, 0x80011120)
T90D6F440 000:478.276 - 0.421ms returns 0
T90D6F440 000:478.277 JLINK_CORESIGHT_WriteAPDPReg(AP reg 0x03, 0x0003B312)
T90D6F440 000:478.854 - 0.577ms returns 0
T90D6F440 000:478.855 JLINK_CORESIGHT_WriteAPDPReg(AP reg 0x00, 0x80000002)
T90D6F440 000:479.275 - 0.420ms returns 0
T90D6F440 000:479.276 JLINK_CORESIGHT_WriteAPDPReg(AP reg 0x01, 0x80011140)
T90D6F440 000:479.854 - 0.578ms returns 0
T90D6F440 000:479.855 JLINK_CORESIGHT_ReadAPDPReg(AP reg 0x03)
T90D6F440 000:480.275   Value=0x00000000
T90D6F440 000:480.277 - 0.422ms returns 0
T90D6F440 000:480.277 JLINK_CORESIGHT_WriteAPDPReg(AP reg 0x00, 0x80000002)
T90D6F440 000:480.854 - 0.577ms returns 0
T90D6F440 000:480.855 JLINK_CORESIGHT_WriteAPDPReg(AP reg 0x01, 0x80011130)
T90D6F440 000:481.274 - 0.419ms returns 0
T90D6F440 000:481.275 JLINK_CORESIGHT_ReadAPDPReg(AP reg 0x03)
T90D6F440 000:481.854   Value=0xB90A0081
T90D6F440 000:481.855 - 0.580ms returns 0
T90D6F440 000:481.855 JLINK_CORESIGHT_WriteAPDPReg(AP reg 0x00, 0x80000002)
T90D6F440 000:482.274 - 0.419ms returns 0
T90D6F440 000:482.276 JLINK_CORESIGHT_WriteAPDPReg(AP reg 0x01, 0x80011140)
T90D6F440 000:482.853 - 0.577ms returns 0
T90D6F440 000:482.854 JLINK_CORESIGHT_ReadAPDPReg(AP reg 0x03)
T90D6F440 000:483.274   Value=0x00000000
T90D6F440 000:483.276 - 0.421ms returns 0
T90D6F440 000:483.276 JLINK_CORESIGHT_WriteAPDPReg(AP reg 0x00, 0x80000002)
T90D6F440 000:483.853 - 0.577ms returns 0
T90D6F440 000:483.854 JLINK_CORESIGHT_WriteAPDPReg(AP reg 0x01, 0x80011130)
T90D6F440 000:484.275 - 0.421ms returns 0
T90D6F440 000:484.276 JLINK_CORESIGHT_ReadAPDPReg(AP reg 0x03)
T90D6F440 000:484.853   Value=0xFFFFFFC0
T90D6F440 000:484.854 - 0.578ms returns 0
T90D6F440 000:484.855 JLINK_CORESIGHT_WriteAPDPReg(AP reg 0x00, 0x80000002)
T90D6F440 000:485.275 - 0.420ms returns 0
T90D6F440 000:485.276 JLINK_CORESIGHT_WriteAPDPReg(AP reg 0x01, 0x80011140)
T90D6F440 000:485.854 - 0.578ms returns 0
T90D6F440 000:485.855 JLINK_CORESIGHT_ReadAPDPReg(AP reg 0x03)
T90D6F440 000:486.274   Value=0x00000000
T90D6F440 000:486.276 - 0.420ms returns 0
T90D6F440 000:486.276 JLINK_CORESIGHT_WriteAPDPReg(AP reg 0x00, 0x80000002)
T90D6F440 000:486.854 - 0.578ms returns 0
T90D6F440 000:486.855 JLINK_CORESIGHT_WriteAPDPReg(AP reg 0x01, 0x80011130)
T90D6F440 000:487.274 - 0.419ms returns 0
T90D6F440 000:487.276 JLINK_CORESIGHT_ReadAPDPReg(AP reg 0x03)
T90D6F440 000:487.854   Value=0xFFFFFFFF
T90D6F440 000:487.855 - 0.579ms returns 0
T90D6F440 000:487.856 JLINK_CORESIGHT_WriteAPDPReg(AP reg 0x00, 0x80000002)
T90D6F440 000:488.275 - 0.419ms returns 0
T90D6F440 000:488.276 JLINK_CORESIGHT_WriteAPDPReg(AP reg 0x01, 0x80011140)
T90D6F440 000:488.854 - 0.578ms returns 0
T90D6F440 000:488.855 JLINK_CORESIGHT_ReadAPDPReg(AP reg 0x03)
T90D6F440 000:489.275   Value=0x00000000
T90D6F440 000:489.276 - 0.421ms returns 0
T90D6F440 000:489.276 JLINK_CORESIGHT_WriteAPDPReg(AP reg 0x00, 0x80000002)
T90D6F440 000:489.854 - 0.578ms returns 0
T90D6F440 000:489.855 JLINK_CORESIGHT_WriteAPDPReg(AP reg 0x01, 0x80011130)
T90D6F440 000:490.274 - 0.419ms returns 0
T90D6F440 000:490.276 JLINK_CORESIGHT_ReadAPDPReg(AP reg 0x03)
T90D6F440 000:490.854   Value=0x000385FF
T90D6F440 000:490.855 - 0.579ms returns 0
T90D6F440 000:490.890 JLINK_CORESIGHT_WriteAPDPReg(AP reg 0x00, 0x80000002)
T90D6F440 000:493.277 - 2.387ms returns 0
T90D6F440 000:493.279 JLINK_CORESIGHT_WriteAPDPReg(AP reg 0x01, 0x80011140)
T90D6F440 000:493.854 - 0.575ms returns 0
T90D6F440 000:493.855 JLINK_CORESIGHT_ReadAPDPReg(AP reg 0x03)
T90D6F440 000:494.274   Value=0x00000002
T90D6F440 000:494.276 - 0.421ms returns 0
T90D6F440 000:494.276 JLINK_CORESIGHT_WriteAPDPReg(AP reg 0x00, 0x80000002)
T90D6F440 000:494.854 - 0.578ms returns 0
T90D6F440 000:494.855 JLINK_CORESIGHT_WriteAPDPReg(AP reg 0x01, 0x80011120)
T90D6F440 000:495.274 - 0.419ms returns 0
T90D6F440 000:495.277 JLINK_CORESIGHT_WriteAPDPReg(AP reg 0x03, 0x2C010001)
T90D6F440 000:495.854 - 0.578ms returns 0
T90D6F440 000:495.855 JLINK_CORESIGHT_WriteAPDPReg(AP reg 0x00, 0x80000002)
T90D6F440 000:496.275 - 0.420ms returns 0
T90D6F440 000:496.276 JLINK_CORESIGHT_WriteAPDPReg(AP reg 0x01, 0x80011140)
T90D6F440 000:496.854 - 0.578ms returns 0
T90D6F440 000:496.855 JLINK_CORESIGHT_ReadAPDPReg(AP reg 0x03)
T90D6F440 000:497.275   Value=0x00000002
T90D6F440 000:497.276 - 0.421ms returns 0
T90D6F440 000:497.277 JLINK_CORESIGHT_WriteAPDPReg(AP reg 0x00, 0x80000002)
T90D6F440 000:497.854 - 0.577ms returns 0
T90D6F440 000:497.855 JLINK_CORESIGHT_WriteAPDPReg(AP reg 0x01, 0x80011120)
T90D6F440 000:498.275 - 0.419ms returns 0
T90D6F440 000:498.276 JLINK_CORESIGHT_WriteAPDPReg(AP reg 0x03, 0x000003D3)
T90D6F440 000:498.854 - 0.578ms returns 0
T90D6F440 000:498.856 JLINK_CORESIGHT_WriteAPDPReg(AP reg 0x00, 0x80000002)
T90D6F440 000:499.275 - 0.420ms returns 0
T90D6F440 000:499.277 JLINK_CORESIGHT_WriteAPDPReg(AP reg 0x01, 0x80011140)
T90D6F440 000:499.854 - 0.578ms returns 0
T90D6F440 000:499.855 JLINK_CORESIGHT_ReadAPDPReg(AP reg 0x03)
T90D6F440 000:500.275   Value=0x00000002
T90D6F440 000:500.277 - 0.422ms returns 0
T90D6F440 000:500.278 JLINK_CORESIGHT_ReadAPDPReg(AP reg 0x03)
T90D6F440 000:500.854   Value=0x00000002
T90D6F440 000:500.855 - 0.577ms returns 0
T90D6F440 000:500.856 JLINK_CORESIGHT_ReadAPDPReg(AP reg 0x03)
T90D6F440 000:501.276   Value=0x00000002
T90D6F440 000:501.277 - 0.421ms returns 0
T90D6F440 000:501.278 JLINK_CORESIGHT_ReadAPDPReg(AP reg 0x03)
T90D6F440 000:501.854   Value=0x00000002
T90D6F440 000:501.855 - 0.577ms returns 0
T90D6F440 000:501.856 JLINK_CORESIGHT_ReadAPDPReg(AP reg 0x03)
T90D6F440 000:502.275   Value=0x00000002
T90D6F440 000:502.276 - 0.420ms returns 0
T90D6F440 000:502.277 JLINK_CORESIGHT_ReadAPDPReg(AP reg 0x03)
T90D6F440 000:502.854   Value=0x00000002
T90D6F440 000:502.855 - 0.578ms returns 0
T90D6F440 000:502.856 JLINK_CORESIGHT_ReadAPDPReg(AP reg 0x03)
T90D6F440 000:503.275   Value=0x00000000
T90D6F440 000:503.276 - 0.419ms returns 0
T90D6F440 000:503.277 JLINK_CORESIGHT_WriteAPDPReg(AP reg 0x00, 0x80000002)
T90D6F440 000:503.854 - 0.577ms returns 0
T90D6F440 000:503.856 JLINK_CORESIGHT_WriteAPDPReg(AP reg 0x01, 0x80011130)
T90D6F440 000:504.276 - 0.420ms returns 0
T90D6F440 000:504.277 JLINK_CORESIGHT_ReadAPDPReg(AP reg 0x03)
T90D6F440 000:504.854   Value=0x2C020081
T90D6F440 000:504.855 - 0.578ms returns 0
T90D6F440 000:504.856 JLINK_CORESIGHT_WriteAPDPReg(AP reg 0x00, 0x80000002)
T90D6F440 000:505.276 - 0.420ms returns 0
T90D6F440 000:505.278 JLINK_CORESIGHT_WriteAPDPReg(AP reg 0x01, 0x80011140)
T90D6F440 000:505.854 - 0.576ms returns 0
T90D6F440 000:505.856 JLINK_CORESIGHT_ReadAPDPReg(AP reg 0x03)
T90D6F440 000:506.275   Value=0x00000000
T90D6F440 000:506.277 - 0.420ms returns 0
T90D6F440 000:506.278 JLINK_CORESIGHT_WriteAPDPReg(AP reg 0x00, 0x80000002)
T90D6F440 000:506.854 - 0.576ms returns 0
T90D6F440 000:506.856 JLINK_CORESIGHT_WriteAPDPReg(AP reg 0x01, 0x80011130)
T90D6F440 000:507.275 - 0.420ms returns 0
T90D6F440 000:507.276 JLINK_CORESIGHT_ReadAPDPReg(AP reg 0x03)
T90D6F440 000:507.854   Value=0x0003CE04
T90D6F440 000:507.855 - 0.579ms returns 0
T90D6F440 000:507.857 JLINK_CORESIGHT_WriteAPDPReg(AP reg 0x00, 0x80000002)
T90D6F440 000:508.276 - 0.419ms returns 0
T90D6F440 000:508.277 JLINK_CORESIGHT_WriteAPDPReg(AP reg 0x01, 0x80011140)
T90D6F440 000:508.854 - 0.577ms returns 0
T90D6F440 000:508.855 JLINK_CORESIGHT_ReadAPDPReg(AP reg 0x03)
T90D6F440 000:509.276   Value=0x00000002
T90D6F440 000:509.277 - 0.422ms returns 0
T90D6F440 000:509.278 JLINK_CORESIGHT_WriteAPDPReg(AP reg 0x00, 0x80000002)
T90D6F440 000:509.854 - 0.576ms returns 0
T90D6F440 000:509.855 JLINK_CORESIGHT_WriteAPDPReg(AP reg 0x01, 0x80011120)
T90D6F440 000:510.275 - 0.420ms returns 0
T90D6F440 000:510.277 JLINK_CORESIGHT_WriteAPDPReg(AP reg 0x03, 0x73010001)
T90D6F440 000:510.854 - 0.577ms returns 0
T90D6F440 000:510.856 JLINK_CORESIGHT_WriteAPDPReg(AP reg 0x00, 0x80000002)
T90D6F440 000:511.277 - 0.421ms returns 0
T90D6F440 000:511.279 JLINK_CORESIGHT_WriteAPDPReg(AP reg 0x01, 0x80011140)
T90D6F440 000:511.854 - 0.575ms returns 0
T90D6F440 000:511.855 JLINK_CORESIGHT_ReadAPDPReg(AP reg 0x03)
T90D6F440 000:512.275   Value=0x00000002
T90D6F440 000:512.276 - 0.421ms returns 0
T90D6F440 000:512.277 JLINK_CORESIGHT_WriteAPDPReg(AP reg 0x00, 0x80000002)
T90D6F440 000:512.854 - 0.577ms returns 0
T90D6F440 000:512.856 JLINK_CORESIGHT_WriteAPDPReg(AP reg 0x01, 0x80011120)
T90D6F440 000:513.275 - 0.419ms returns 0
T90D6F440 000:513.277 JLINK_CORESIGHT_WriteAPDPReg(AP reg 0x03, 0x0000038C)
T90D6F440 000:513.854 - 0.577ms returns 0
T90D6F440 000:513.856 JLINK_CORESIGHT_WriteAPDPReg(AP reg 0x00, 0x80000002)
T90D6F440 000:514.276 - 0.420ms returns 0
T90D6F440 000:514.277 JLINK_CORESIGHT_WriteAPDPReg(AP reg 0x01, 0x80011140)
T90D6F440 000:514.854 - 0.577ms returns 0
T90D6F440 000:514.856 JLINK_CORESIGHT_ReadAPDPReg(AP reg 0x03)
T90D6F440 000:515.275   Value=0x00000002
T90D6F440 000:515.277 - 0.421ms returns 0
T90D6F440 000:515.278 JLINK_CORESIGHT_ReadAPDPReg(AP reg 0x03)
T90D6F440 000:515.855   Value=0x00000000
T90D6F440 000:515.856 - 0.578ms returns 0
T90D6F440 000:515.857 JLINK_CORESIGHT_WriteAPDPReg(AP reg 0x00, 0x80000002)
T90D6F440 000:516.276 - 0.419ms returns 0
T90D6F440 000:516.277 JLINK_CORESIGHT_WriteAPDPReg(AP reg 0x01, 0x80011130)
T90D6F440 000:516.854 - 0.577ms returns 0
T90D6F440 000:516.856 JLINK_CORESIGHT_ReadAPDPReg(AP reg 0x03)
T90D6F440 000:517.275   Value=0x73020081
T90D6F440 000:517.276 - 0.420ms returns 0
T90D6F440 000:517.277 JLINK_CORESIGHT_WriteAPDPReg(AP reg 0x00, 0x80000002)
T90D6F440 000:517.854 - 0.577ms returns 0
T90D6F440 000:517.856 JLINK_CORESIGHT_WriteAPDPReg(AP reg 0x01, 0x80011140)
T90D6F440 000:518.276 - 0.420ms returns 0
T90D6F440 000:518.277 JLINK_CORESIGHT_ReadAPDPReg(AP reg 0x03)
T90D6F440 000:518.854   Value=0x00000000
T90D6F440 000:518.856 - 0.578ms returns 0
T90D6F440 000:518.857 JLINK_CORESIGHT_WriteAPDPReg(AP reg 0x00, 0x80000002)
T90D6F440 000:519.276 - 0.419ms returns 0
T90D6F440 000:519.277 JLINK_CORESIGHT_WriteAPDPReg(AP reg 0x01, 0x80011130)
T90D6F440 000:519.854 - 0.577ms returns 0
T90D6F440 000:519.856 JLINK_CORESIGHT_ReadAPDPReg(AP reg 0x03)
T90D6F440 000:520.275   Value=0x00038902
T90D6F440 000:520.276 - 0.420ms returns 0
T90D6F440 000:520.278 JLINK_CORESIGHT_WriteAPDPReg(AP reg 0x00, 0x80000002)
T90D6F440 000:520.855 - 0.577ms returns 0
T90D6F440 000:520.856 JLINK_CORESIGHT_WriteAPDPReg(AP reg 0x01, 0x80011140)
T90D6F440 000:521.275 - 0.419ms returns 0
T90D6F440 000:521.277 JLINK_CORESIGHT_ReadAPDPReg(AP reg 0x03)
T90D6F440 000:521.855   Value=0x00000002
T90D6F440 000:521.856 - 0.579ms returns 0
T90D6F440 000:521.857 JLINK_CORESIGHT_WriteAPDPReg(AP reg 0x00, 0x80000002)
T90D6F440 000:522.276 - 0.418ms returns 0
T90D6F440 000:522.277 JLINK_CORESIGHT_WriteAPDPReg(AP reg 0x01, 0x80011120)
T90D6F440 000:522.855 - 0.578ms returns 0
T90D6F440 000:522.856 JLINK_CORESIGHT_WriteAPDPReg(AP reg 0x03, 0x75010001)
T90D6F440 000:523.275 - 0.419ms returns 0
T90D6F440 000:523.277 JLINK_CORESIGHT_WriteAPDPReg(AP reg 0x00, 0x80000002)
T90D6F440 000:523.855 - 0.578ms returns 0
T90D6F440 000:523.856 JLINK_CORESIGHT_WriteAPDPReg(AP reg 0x01, 0x80011140)
T90D6F440 000:524.277 - 0.421ms returns 0
T90D6F440 000:524.278 JLINK_CORESIGHT_ReadAPDPReg(AP reg 0x03)
T90D6F440 000:524.854   Value=0x00000002
T90D6F440 000:524.855 - 0.577ms returns 0
T90D6F440 000:524.857 JLINK_CORESIGHT_WriteAPDPReg(AP reg 0x00, 0x80000002)
T90D6F440 000:525.277 - 0.421ms returns 0
T90D6F440 000:525.279 JLINK_CORESIGHT_WriteAPDPReg(AP reg 0x01, 0x80011120)
T90D6F440 000:525.855 - 0.575ms returns 0
T90D6F440 000:525.856 JLINK_CORESIGHT_WriteAPDPReg(AP reg 0x03, 0x0000038A)
T90D6F440 000:526.275 - 0.419ms returns 0
T90D6F440 000:526.277 JLINK_CORESIGHT_WriteAPDPReg(AP reg 0x00, 0x80000002)
T90D6F440 000:526.855 - 0.578ms returns 0
T90D6F440 000:526.856 JLINK_CORESIGHT_WriteAPDPReg(AP reg 0x01, 0x80011140)
T90D6F440 000:527.277 - 0.421ms returns 0
T90D6F440 000:527.279 JLINK_CORESIGHT_ReadAPDPReg(AP reg 0x03)
T90D6F440 000:527.854   Value=0x00000002
T90D6F440 000:527.855 - 0.576ms returns 0
T90D6F440 000:527.857 JLINK_CORESIGHT_ReadAPDPReg(AP reg 0x03)
T90D6F440 000:528.275   Value=0x00000002
T90D6F440 000:528.276 - 0.420ms returns 0
T90D6F440 000:528.278 JLINK_CORESIGHT_ReadAPDPReg(AP reg 0x03)
T90D6F440 000:528.855   Value=0x00000002
T90D6F440 000:528.856 - 0.578ms returns 0
T90D6F440 000:528.857 JLINK_CORESIGHT_ReadAPDPReg(AP reg 0x03)
T90D6F440 000:529.272   Value=0x00000002
T90D6F440 000:529.273 - 0.416ms returns 0
T90D6F440 000:529.274 JLINK_CORESIGHT_ReadAPDPReg(AP reg 0x03)
T90D6F440 000:529.855   Value=0x00000002
T90D6F440 000:529.856 - 0.582ms returns 0
T90D6F440 000:529.858 JLINK_CORESIGHT_ReadAPDPReg(AP reg 0x03)
T90D6F440 000:530.272   Value=0x00000002
T90D6F440 000:530.273 - 0.416ms returns 0
T90D6F440 000:530.275 JLINK_CORESIGHT_ReadAPDPReg(AP reg 0x03)
T90D6F440 000:530.855   Value=0x00000000
T90D6F440 000:530.856 - 0.582ms returns 0
T90D6F440 000:530.857 JLINK_CORESIGHT_WriteAPDPReg(AP reg 0x00, 0x80000002)
T90D6F440 000:531.276 - 0.419ms returns 0
T90D6F440 000:531.278 JLINK_CORESIGHT_WriteAPDPReg(AP reg 0x01, 0x80011130)
T90D6F440 000:531.855 - 0.578ms returns 0
T90D6F440 000:531.856 JLINK_CORESIGHT_ReadAPDPReg(AP reg 0x03)
T90D6F440 000:532.275   Value=0x75020081
T90D6F440 000:532.277 - 0.421ms returns 0
T90D6F440 000:532.278 JLINK_CORESIGHT_WriteAPDPReg(AP reg 0x00, 0x80000002)
T90D6F440 000:532.855 - 0.577ms returns 0
T90D6F440 000:532.856 JLINK_CORESIGHT_WriteAPDPReg(AP reg 0x01, 0x80011140)
T90D6F440 000:533.276 - 0.420ms returns 0
T90D6F440 000:533.278 JLINK_CORESIGHT_ReadAPDPReg(AP reg 0x03)
T90D6F440 000:533.856   Value=0x00000000
T90D6F440 000:533.857 - 0.579ms returns 0
T90D6F440 000:533.858 JLINK_CORESIGHT_WriteAPDPReg(AP reg 0x00, 0x80000002)
T90D6F440 000:534.276 - 0.418ms returns 0
T90D6F440 000:534.277 JLINK_CORESIGHT_WriteAPDPReg(AP reg 0x01, 0x80011130)
T90D6F440 000:534.855 - 0.578ms returns 0
T90D6F440 000:534.856 JLINK_CORESIGHT_ReadAPDPReg(AP reg 0x03)
T90D6F440 000:535.275   Value=0x00038702
T90D6F440 000:535.277 - 0.421ms returns 0
T90D6F440 000:535.285 JLINK_CORESIGHT_WriteAPDPReg(AP reg 0x00, 0x80000002)
T90D6F440 000:535.855 - 0.571ms returns 0
T90D6F440 000:535.856 JLINK_CORESIGHT_WriteAPDPReg(AP reg 0x01, 0x80011140)
T90D6F440 000:536.276 - 0.419ms returns 0
T90D6F440 000:536.277 JLINK_CORESIGHT_ReadAPDPReg(AP reg 0x03)
T90D6F440 000:536.855   Value=0x00000002
T90D6F440 000:536.856 - 0.579ms returns 0
T90D6F440 000:536.857 JLINK_CORESIGHT_WriteAPDPReg(AP reg 0x00, 0x80000002)
T90D6F440 000:537.277 - 0.420ms returns 0
T90D6F440 000:537.278 JLINK_CORESIGHT_WriteAPDPReg(AP reg 0x01, 0x80011120)
T90D6F440 000:537.855 - 0.576ms returns 0
T90D6F440 000:537.856 JLINK_CORESIGHT_WriteAPDPReg(AP reg 0x03, 0x4F010001)
T90D6F440 000:538.271 - 0.416ms returns 0
T90D6F440 000:538.272 JLINK_CORESIGHT_WriteAPDPReg(AP reg 0x00, 0x80000002)
T90D6F440 000:538.855 - 0.583ms returns 0
T90D6F440 000:538.856 JLINK_CORESIGHT_WriteAPDPReg(AP reg 0x01, 0x80011140)
T90D6F440 000:539.275 - 0.419ms returns 0
T90D6F440 000:539.276 JLINK_CORESIGHT_ReadAPDPReg(AP reg 0x03)
T90D6F440 000:539.855   Value=0x00000002
T90D6F440 000:539.856 - 0.580ms returns 0
T90D6F440 000:539.857 JLINK_CORESIGHT_WriteAPDPReg(AP reg 0x00, 0x80000002)
T90D6F440 000:540.276 - 0.419ms returns 0
T90D6F440 000:540.277 JLINK_CORESIGHT_WriteAPDPReg(AP reg 0x01, 0x80011120)
T90D6F440 000:540.855 - 0.578ms returns 0
T90D6F440 000:540.856 JLINK_CORESIGHT_WriteAPDPReg(AP reg 0x03, 0x000003B0)
T90D6F440 000:541.276 - 0.420ms returns 0
T90D6F440 000:541.277 JLINK_CORESIGHT_WriteAPDPReg(AP reg 0x00, 0x80000002)
T90D6F440 000:541.855 - 0.578ms returns 0
T90D6F440 000:541.856 JLINK_CORESIGHT_WriteAPDPReg(AP reg 0x01, 0x80011140)
T90D6F440 000:542.276 - 0.420ms returns 0
T90D6F440 000:542.277 JLINK_CORESIGHT_ReadAPDPReg(AP reg 0x03)
T90D6F440 000:542.855   Value=0x00000002
T90D6F440 000:542.858 - 0.580ms returns 0
T90D6F440 000:542.858 JLINK_CORESIGHT_ReadAPDPReg(AP reg 0x03)
T90D6F440 000:543.275   Value=0x00000002
T90D6F440 000:543.277 - 0.418ms returns 0
T90D6F440 000:543.277 JLINK_CORESIGHT_ReadAPDPReg(AP reg 0x03)
T90D6F440 000:543.855   Value=0x00000002
T90D6F440 000:543.856 - 0.579ms returns 0
T90D6F440 000:543.857 JLINK_CORESIGHT_ReadAPDPReg(AP reg 0x03)
T90D6F440 000:544.276   Value=0x00000002
T90D6F440 000:544.277 - 0.420ms returns 0
T90D6F440 000:544.277 JLINK_CORESIGHT_ReadAPDPReg(AP reg 0x03)
T90D6F440 000:544.855   Value=0x00000002
T90D6F440 000:544.856 - 0.579ms returns 0
T90D6F440 000:544.857 JLINK_CORESIGHT_ReadAPDPReg(AP reg 0x03)
T90D6F440 000:545.276   Value=0x00000000
T90D6F440 000:545.277 - 0.421ms returns 0
